
T1D38 000:782 SEGGER J-Link V4.14 Log File (0002ms, 0756ms total)
T1D38 000:782 DLL Compiled: Apr  9 2010 20:43:32 (0002ms, 0756ms total)
T1D38 000:782 Logging started @ 2010-04-10 17:48 (0002ms, 0756ms total)
T1D38 000:784 JLINK_SetWarnOutHandler(...) (0000ms, 0758ms total)
T1D38 000:784 JLINK_OpenEx(...)
Firmware: J-Link ARM V8 compiled Dec  1 2009 11:42:48
Hardware: V8.00
S/N: 20100214
Feature(s): RDI,FlashDL,FlashBP,JFlash,GDBFull  returns O.K. (0144ms, 0758ms total)
T1D38 000:929 JLINK_SetErrorOutHandler(...) (0000ms, 0902ms total)
T1D38 000:944 JLINK_TIF_Select(JLINKARM_TIF_SWD)  returns 0x00 (0002ms, 0902ms total)
T1D38 000:949 JLINK_SetSpeed(3000) (0002ms, 0904ms total)
T1D38 000:951 JLINK_GetHardwareVersion()  returns 0x13880 (0000ms, 0906ms total)
T1D38 000:951 JLINK_GetDLLVersion()  returns 41400 (0000ms, 0906ms total)
T1D38 000:951 JLINK_GetFirmwareString(...) (0000ms, 0906ms total)
T1D38 000:953 JLINK_GetDLLVersion()  returns 41400 (0000ms, 0906ms total)
T1D38 000:954 JLINK_GetCompileDateTime() (0000ms, 0907ms total)
T1D38 000:955 JLINK_GetFirmwareString(...) (0000ms, 0907ms total)
T1D38 000:956 JLINK_GetHardwareVersion()  returns 0x13880 (0000ms, 0907ms total)
T1D38 000:961 JLINK_JTAG_StoreRaw(..., 0x108 Bits)  returns 0x00 (0000ms, 0907ms total)
T1D38 000:961 JLINK_JTAG_GetU32(BitPos = 227) >0x108 TIF>  returns 0x2BA01477 (0002ms, 0907ms total)
T1D38 000:963 JLINK_ReadMem (0xE00FF000, 0x0018 Bytes, ...) >0x108 TIF>Found SWD-DP with ID 0x2BA01477 >0x33 TIF> >0x33 TIF> >0x35 TIF> >0x33 TIF> >0x33 TIF> >0x35 TIF> >0x66 TIF> >0x66 TIF> >0x35 TIF> >0x16D TIF> >0xD0 TIF> >0x16D TIF> >0xD0 TIF>TPIU fitted. >0xD0 TIF>ETM fitted. >0xD0 TIF>  FPUnit: 6 code (BP) slots and 2 literal slots >0xD0 TIF> -- CPU is running -- CPU_ReadMem(24 bytes @ 0xE00FF000) -- Data:  03 F0 F0 FF 03 20 F0 FF 03 30 F0 FF 03 10 F0 FF ...  returns 0x00 (0050ms, 0909ms total)
T1D38 001:013 JLINK_ReadMemU32(0xE000ED00, 0x0001 Items, ...) -- CPU is running -- CPU_ReadMem(4 bytes @ 0xE000ED00) -- Data:  30 C2 2F 41  returns 0x01 (0002ms, 0959ms total)
T1D38 001:015 JLINK_Reset() >0x108 TIF>Found SWD-DP with ID 0x2BA01477 >0x33 TIF> >0x33 TIF> >0x35 TIF> >0x33 TIF> >0x35 TIF> >0x33 TIF> >0x33 TIF> >0x35 TIF> >0x66 TIF> >0x66 TIF> >0x35 TIF> >0x16D TIF> >0xD0 TIF> >0xD0 TIF>TPIU fitted. >0xD0 TIF>ETM fitted. >0xD0 TIF>  FPUnit: 6 code (BP) slots and 2 literal slots >0xD0 TIF> -- CPU_WriteMem(4 bytes @ 0xE000EDFC) -- CPU_WriteMem(4 bytes @ 0xE000EDFC) -- CPU_WriteMem(4 bytes @ 0xE000EDFC) -- CPU_WriteMem(4 bytes @ 0xE000EDFC)
 -- CPU_WriteMem(4 bytes @ 0xE000EDFC) -- CPU_WriteMem(4 bytes @ 0xE0001050) -- CPU_WriteMem(4 bytes @ 0xE0001054) -- CPU_WriteMem(4 bytes @ 0xE0001058) -- CPU_WriteMem(4 bytes @ 0xE000EDFC) -- CPU_WriteMem(4 bytes @ 0xE0001058) -- CPU_ReadMem(4 bytes @ 0x00000000) -- CPU_ReadMem(4 bytes @ 0x00000004) (0225ms, 0961ms total)
T1D38 001:243 JLINK_Halt()  returns 0x00 (0000ms, 1186ms total)
T1D38 001:243 JLINK_IsHalted()  returns TRUE (0001ms, 1186ms total)
T1D38 001:244 JLINK_ReadMemU32(0xE000EDF0, 0x0001 Items, ...) -- CPU_ReadMem(4 bytes @ 0xE000EDF0) -- Data:  03 00 03 00  returns 0x01 (0001ms, 1186ms total)
T1D38 001:245 JLINK_WriteU32(0xE000EDF0, 0xA05F0003) -- CPU_WriteMem(4 bytes @ 0xE000EDF0)  returns 0x00 (0002ms, 1187ms total)
T1D38 001:247 JLINK_WriteU32(0xE000EDFC, 0x01000000) -- CPU_WriteMem(4 bytes @ 0xE000EDFC)  returns 0x00 (0001ms, 1189ms total)
T1D38 001:248 JLINK_ReadMemU32(0xE0002000, 0x0001 Items, ...) -- CPU_ReadMem(4 bytes @ 0xE0002000) -- Data:  60 02 00 00  returns 0x01 (0002ms, 1190ms total)
T1D38 001:250 JLINK_ReadMemU32(0xE0001000, 0x0001 Items, ...) -- CPU_ReadMem(4 bytes @ 0xE0001000) -- Data:  00 00 00 40  returns 0x01 (0001ms, 1192ms total)

                JLINK_AddMirrorAreaEx(Addr = 0x00000000, Size = 0x00000000) (0000ms, 0000ms total)
              JLINK_GetHWStatus(...)  returns 0x00 (0001ms, 1195ms total)
T1D38 001:264 JLINK_GetNumBPUnits(Type = 0xFFFFFF00) >0x108 TIF>Found SWD-DP with ID 0x2BA01477 >0x33 TIF> >0x33 TIF> >0x35 TIF> >0x33 TIF> >0x35 TIF> >0x33 TIF> >0x33 TIF> >0x35 TIF> >0x66 TIF> >0x66 TIF> >0x35 TIF> >0x16D TIF> >0xD0 TIF> >0xD0 TIF>TPIU fitted. >0xD0 TIF>ETM fitted. >0xD0 TIF>  FPUnit: 6 code (BP) slots and 2 literal slots >0xD0 TIF>  returns 0x06 (0033ms, 1196ms total)
T1D38 001:297 JLINK_GetNumBPUnits(Type = 0xF0)  returns 0x800 (0000ms, 1229ms total)
T1D38 001:297 JLINK_GetNumWPUnits()  returns 0x04 (0000ms, 1229ms total)
T1D38 001:299 JLINK_GetSpeed()  returns 0x7D0 (0000ms, 1229ms total)
T1D38 001:303 JLINK_ReadMemU32(0xE000E004, 0x0001 Items, ...) -- CPU_ReadMem(4 bytes @ 0xE000E004) -- Data:  01 00 00 00  returns 0x01 (0002ms, 1229ms total)
T1D38 001:305 JLINK_WriteMem(0xE0001000, 0x001C Bytes, ...) -- Data:  01 00 00 00 00 00 00 00 00 00 00 00 00 00 00 00 ... -- CPU_WriteMem(28 bytes @ 0xE0001000)  returns 0x1C (0002ms, 1231ms total)
T1D38 001:307 JLINK_ReadMem (0xE0001000, 0x001C Bytes, ...) -- CPU_ReadMem(28 bytes @ 0xE0001000) -- Data:  01 00 00 40 00 00 00 00 00 00 00 00 00 00 00 00 ...  returns 0x00 (0002ms, 1233ms total)
T1D38 001:309 JLINK_SetResetType(JLINKARM_RESET_TYPE_NORMAL)  returns JLINKARM_RESET_TYPE_NORMAL (0000ms, 1235ms total)
T1D38 001:309 JLINK_Reset() >0x108 TIF>Found SWD-DP with ID 0x2BA01477 >0x33 TIF> >0x33 TIF> >0x35 TIF> >0x33 TIF> >0x35 TIF> >0x33 TIF> >0x33 TIF> >0x35 TIF> >0x66 TIF> >0x66 TIF> >0x35 TIF> >0x16D TIF> >0xD0 TIF> >0xD0 TIF>TPIU fitted. >0xD0 TIF>ETM fitted. >0xD0 TIF>  FPUnit: 6 code (BP) slots and 2 literal slots >0xD0 TIF> -- CPU_WriteMem(4 bytes @ 0xE000EDFC) -- CPU_WriteMem(4 bytes @ 0xE000EDFC) -- CPU_WriteMem(4 bytes @ 0xE000EDFC) -- CPU_WriteMem(4 bytes @ 0xE000EDFC)
 -- CPU_WriteMem(4 bytes @ 0xE000EDFC) -- CPU_WriteMem(4 bytes @ 0xE0001050) -- CPU_WriteMem(4 bytes @ 0xE0001054) -- CPU_WriteMem(4 bytes @ 0xE0001058) -- CPU_WriteMem(4 bytes @ 0xE000EDFC) -- CPU_WriteMem(4 bytes @ 0xE0001058) -- CPU_ReadMem(4 bytes @ 0x00000000) -- CPU_ReadMem(4 bytes @ 0x00000004) (0189ms, 1235ms total)
T1D38 001:500 JLINK_Halt()  returns 0x00 (0000ms, 1424ms total)
T1D38 001:500 JLINK_IsHalted()  returns TRUE (0001ms, 1424ms total)
T1D38 001:523 JLINK_WriteMem(0x10000000, 0x017C Bytes, ...) -- Data:  00 BE 0A E0 0D 78 2D 06 68 40 08 24 40 00 00 D3 ... -- CPU_WriteMem(380 bytes @ 0x10000000)  returns 0x17C (0007ms, 1424ms total)
T1D38 001:530 JLINK_ReadMem (0x10000000, 0x017C Bytes, ...) -- CPU_ReadMem(384 bytes @ 0x10000000) -- Updating C cache (384 bytes @ 0x10000000) -- Read from C cache (380 bytes @ 0x10000000) -- Data:  00 BE 0A E0 0D 78 2D 06 68 40 08 24 40 00 00 D3 ...  returns 0x00 (0006ms, 1431ms total)
T1D38 001:536 JLINK_WriteReg(R0, 0x00000000)  returns 0x00 (0000ms, 1437ms total)
T1D38 001:536 JLINK_WriteReg(R1, 0x00B71B00)  returns 0x00 (0000ms, 1437ms total)
T1D38 001:536 JLINK_WriteReg(R2, 0x00000001)  returns 0x00 (0000ms, 1437ms total)
T1D38 001:536 JLINK_WriteReg(R3, 0x00000000)  returns 0x00 (0000ms, 1437ms total)
T1D38 001:536 JLINK_WriteReg(R4, 0x00000000)  returns 0x00 (0000ms, 1437ms total)
T1D38 001:536 JLINK_WriteReg(R5, 0x00000000)  returns 0x00 (0001ms, 1437ms total)
T1D38 001:537 JLINK_WriteReg(R6, 0x00000000)  returns 0x00 (0000ms, 1438ms total)
T1D38 001:537 JLINK_WriteReg(R7, 0x00000000)  returns 0x00 (0000ms, 1438ms total)
T1D38 001:537 JLINK_WriteReg(R8, 0x00000000)  returns 0x00 (0000ms, 1438ms total)
T1D38 001:537 JLINK_WriteReg(R9, 0x10000174)  returns 0x00 (0000ms, 1438ms total)
T1D38 001:537 JLINK_WriteReg(R10, 0x00000000)  returns 0x00 (0000ms, 1438ms total)
T1D38 001:537 JLINK_WriteReg(R11, 0x00000000)  returns 0x00 (0000ms, 1438ms total)
T1D38 001:537 JLINK_WriteReg(R12, 0x00000000)  returns 0x00 (0001ms, 1438ms total)
T1D38 001:538 JLINK_WriteReg(R13, 0x10000800)  returns 0x00 (0000ms, 1439ms total)
T1D38 001:538 JLINK_WriteReg(R14, 0x10000001)  returns 0x00 (0000ms, 1439ms total)
T1D38 001:538 JLINK_WriteReg(R15, 0x10000046)  returns 0x00 (0000ms, 1439ms total)
T1D38 001:538 JLINK_WriteReg(XPSR, 0x01000000)  returns 0x00 (0000ms, 1439ms total)
T1D38 001:538 JLINK_WriteReg(MSP, 0x10000800)  returns 0x00 (0000ms, 1439ms total)
T1D38 001:538 JLINK_WriteReg(PSP, 0x10000800)  returns 0x00 (0000ms, 1439ms total)
T1D38 001:538 JLINK_WriteReg(CFBP, 0x00000000)  returns 0x00 (0000ms, 1439ms total)
T1D38 001:539 JLINK_SetBPEx(Addr = 0x10000000, Type = 0xFFFFFFF2)  returns 0x00000001 (0000ms, 1440ms total)
T1D38 001:539 JLINK_Go() -- CPU_WriteMem(4 bytes @ 0xE0002000) -- CPU_WriteMem(4 bytes @ 0xE0002008) -- CPU_WriteMem(4 bytes @ 0xE000200C) -- CPU_WriteMem(4 bytes @ 0xE0002010) -- CPU_WriteMem(4 bytes @ 0xE0002014) -- CPU_WriteMem(4 bytes @ 0xE0002018) -- CPU_WriteMem(4 bytes @ 0xE000201C) (0016ms, 1440ms total)
T1D38 001:555 JLINK_IsHalted()  returns TRUE (0008ms, 1456ms total)
T1D38 001:563 JLINK_ReadReg(R15)  returns 0x10000000 (0000ms, 1456ms total)
T1D38 001:563 JLINK_ClrBPEx(BPHandle = 0x00000001)  returns 0x00 (0000ms, 1456ms total)
T1D38 001:563 JLINK_ReadReg(R0)  returns 0x00000000 (0000ms, 1456ms total)
T1D38 001:564 JLINK_WriteReg(R0, 0x00000000)  returns 0x00 (0000ms, 1456ms total)
T1D38 001:564 JLINK_WriteReg(R1, 0x00001000)  returns 0x00 (0000ms, 1456ms total)
T1D38 001:564 JLINK_WriteReg(R2, 0x000000FF)  returns 0x00 (0000ms, 1456ms total)
T1D38 001:564 JLINK_WriteReg(R3, 0x00000000)  returns 0x00 (0000ms, 1456ms total)
T1D38 001:564 JLINK_WriteReg(R4, 0x00000000)  returns 0x00 (0000ms, 1456ms total)
T1D38 001:565 JLINK_WriteReg(R5, 0x00000000)  returns 0x00 (0000ms, 1457ms total)
T1D38 001:565 JLINK_WriteReg(R6, 0x00000000)  returns 0x00 (0000ms, 1457ms total)
T1D38 001:565 JLINK_WriteReg(R7, 0x00000000)  returns 0x00 (0000ms, 1457ms total)
T1D38 001:565 JLINK_WriteReg(R8, 0x00000000)  returns 0x00 (0000ms, 1457ms total)
T1D38 001:565 JLINK_WriteReg(R9, 0x10000174)  returns 0x00 (0000ms, 1457ms total)
T1D38 001:565 JLINK_WriteReg(R10, 0x00000000)  returns 0x00 (0000ms, 1457ms total)
T1D38 001:565 JLINK_WriteReg(R11, 0x00000000)  returns 0x00 (0000ms, 1457ms total)
T1D38 001:566 JLINK_WriteReg(R12, 0x00000000)  returns 0x00 (0000ms, 1458ms total)
T1D38 001:566 JLINK_WriteReg(R13, 0x10000800)  returns 0x00 (0000ms, 1458ms total)
T1D38 001:566 JLINK_WriteReg(R14, 0x10000001)  returns 0x00 (0000ms, 1458ms total)
T1D38 001:566 JLINK_WriteReg(R15, 0x10000020)  returns 0x00 (0000ms, 1458ms total)
T1D38 001:566 JLINK_WriteReg(XPSR, 0x01000000)  returns 0x00 (0000ms, 1458ms total)
T1D38 001:566 JLINK_WriteReg(MSP, 0x10000800)  returns 0x00 (0000ms, 1458ms total)
T1D38 001:566 JLINK_WriteReg(PSP, 0x10000800)  returns 0x00 (0000ms, 1458ms total)
T1D38 001:566 JLINK_WriteReg(CFBP, 0x00000000)  returns 0x00 (0001ms, 1458ms total)
T1D38 001:567 JLINK_SetBPEx(Addr = 0x10000000, Type = 0xFFFFFFF2)  returns 0x00000002 (0000ms, 1459ms total)
T1D38 001:567 JLINK_Go() -- CPU_WriteMem(4 bytes @ 0xE0002008) -- CPU_WriteMem(4 bytes @ 0xE000200C) -- CPU_WriteMem(4 bytes @ 0xE0002010) -- CPU_WriteMem(4 bytes @ 0xE0002014) -- CPU_WriteMem(4 bytes @ 0xE0002018) -- CPU_WriteMem(4 bytes @ 0xE000201C) (0017ms, 1459ms total)
T1D38 001:584 JLINK_IsHalted()  returns TRUE (0008ms, 1476ms total)
T1D38 001:592 JLINK_ReadReg(R15)  returns 0x10000000 (0000ms, 1476ms total)
T1D38 001:592 JLINK_ClrBPEx(BPHandle = 0x00000002)  returns 0x00 (0000ms, 1476ms total)
T1D38 001:592 JLINK_ReadReg(R0)  returns 0x00000001 (0000ms, 1476ms total)
T1D38 001:592 JLINK_WriteReg(R0, 0x00000000)  returns 0x00 (0000ms, 1476ms total)
T1D38 001:592 JLINK_WriteReg(R1, 0x00001000)  returns 0x00 (0000ms, 1476ms total)
T1D38 001:592 JLINK_WriteReg(R2, 0x000000FF)  returns 0x00 (0000ms, 1476ms total)
T1D38 001:592 JLINK_WriteReg(R3, 0x00000000)  returns 0x00 (0000ms, 1476ms total)
T1D38 001:592 JLINK_WriteReg(R4, 0x00000000)  returns 0x00 (0001ms, 1476ms total)
T1D38 001:593 JLINK_WriteReg(R5, 0x00000000)  returns 0x00 (0000ms, 1477ms total)
T1D38 001:593 JLINK_WriteReg(R6, 0x00000000)  returns 0x00 (0000ms, 1477ms total)
T1D38 001:593 JLINK_WriteReg(R7, 0x00000000)  returns 0x00 (0000ms, 1477ms total)
T1D38 001:593 JLINK_WriteReg(R8, 0x00000000)  returns 0x00 (0000ms, 1477ms total)
T1D38 001:593 JLINK_WriteReg(R9, 0x10000174)  returns 0x00 (0000ms, 1477ms total)
T1D38 001:593 JLINK_WriteReg(R10, 0x00000000)  returns 0x00 (0000ms, 1477ms total)
T1D38 001:593 JLINK_WriteReg(R11, 0x00000000)  returns 0x00 (0001ms, 1477ms total)
T1D38 001:594 JLINK_WriteReg(R12, 0x00000000)  returns 0x00 (0000ms, 1478ms total)
T1D38 001:594 JLINK_WriteReg(R13, 0x10000800)  returns 0x00 (0000ms, 1478ms total)
T1D38 001:594 JLINK_WriteReg(R14, 0x10000001)  returns 0x00 (0000ms, 1478ms total)
T1D38 001:594 JLINK_WriteReg(R15, 0x100000AE)  returns 0x00 (0000ms, 1478ms total)
T1D38 001:594 JLINK_WriteReg(XPSR, 0x01000000)  returns 0x00 (0000ms, 1478ms total)
T1D38 001:594 JLINK_WriteReg(MSP, 0x10000800)  returns 0x00 (0000ms, 1478ms total)
T1D38 001:594 JLINK_WriteReg(PSP, 0x10000800)  returns 0x00 (0001ms, 1478ms total)
T1D38 001:595 JLINK_WriteReg(CFBP, 0x00000000)  returns 0x00 (0000ms, 1479ms total)
T1D38 001:595 JLINK_SetBPEx(Addr = 0x10000000, Type = 0xFFFFFFF2)  returns 0x00000003 (0000ms, 1479ms total)
T1D38 001:595 JLINK_Go() -- CPU_WriteMem(4 bytes @ 0xE0002008) -- CPU_WriteMem(4 bytes @ 0xE000200C) -- CPU_WriteMem(4 bytes @ 0xE0002010) -- CPU_WriteMem(4 bytes @ 0xE0002014) -- CPU_WriteMem(4 bytes @ 0xE0002018) -- CPU_WriteMem(4 bytes @ 0xE000201C) (0013ms, 1479ms total)
T1D38 001:608 JLINK_IsHalted()  returns FALSE (0001ms, 1492ms total)
T1D38 001:661 JLINK_IsHalted()  returns FALSE (0002ms, 1492ms total)
T1D38 001:713 JLINK_IsHalted()  returns TRUE (0039ms, 1492ms total)
T1D38 001:752 JLINK_ReadReg(R15)  returns 0x10000000 (0001ms, 1492ms total)
T1D38 001:753 JLINK_ClrBPEx(BPHandle = 0x00000003)  returns 0x00 (0000ms, 1493ms total)
T1D38 001:753 JLINK_ReadReg(R0)  returns 0x00000000 (0000ms, 1493ms total)
T1D38 001:754 JLINK_WriteReg(R0, 0x00001000)  returns 0x00 (0000ms, 1493ms total)
T1D38 001:754 JLINK_WriteReg(R1, 0x00001000)  returns 0x00 (0000ms, 1493ms total)
T1D38 001:755 JLINK_WriteReg(R2, 0x000000FF)  returns 0x00 (0000ms, 1493ms total)
T1D38 001:755 JLINK_WriteReg(R3, 0x00000000)  returns 0x00 (0000ms, 1493ms total)
T1D38 001:755 JLINK_WriteReg(R4, 0x00000000)  returns 0x00 (0000ms, 1493ms total)
T1D38 001:755 JLINK_WriteReg(R5, 0x00000000)  returns 0x00 (0000ms, 1493ms total)
T1D38 001:755 JLINK_WriteReg(R6, 0x00000000)  returns 0x00 (0000ms, 1493ms total)
T1D38 001:755 JLINK_WriteReg(R7, 0x00000000)  returns 0x00 (0000ms, 1493ms total)
T1D38 001:755 JLINK_WriteReg(R8, 0x00000000)  returns 0x00 (0000ms, 1493ms total)
T1D38 001:755 JLINK_WriteReg(R9, 0x10000174)  returns 0x00 (0000ms, 1493ms total)
T1D38 001:755 JLINK_WriteReg(R10, 0x00000000)  returns 0x00 (0001ms, 1493ms total)
T1D38 001:756 JLINK_WriteReg(R11, 0x00000000)  returns 0x00 (0000ms, 1494ms total)
T1D38 001:756 JLINK_WriteReg(R12, 0x00000000)  returns 0x00 (0000ms, 1494ms total)
T1D38 001:756 JLINK_WriteReg(R13, 0x10000800)  returns 0x00 (0000ms, 1494ms total)
T1D38 001:756 JLINK_WriteReg(R14, 0x10000001)  returns 0x00 (0000ms, 1494ms total)
T1D38 001:756 JLINK_WriteReg(R15, 0x10000020)  returns 0x00 (0000ms, 1494ms total)
T1D38 001:756 JLINK_WriteReg(XPSR, 0x01000000)  returns 0x00 (0000ms, 1494ms total)
T1D38 001:756 JLINK_WriteReg(MSP, 0x10000800)  returns 0x00 (0001ms, 1494ms total)
T1D38 001:757 JLINK_WriteReg(PSP, 0x10000800)  returns 0x00 (0000ms, 1495ms total)
T1D38 001:757 JLINK_WriteReg(CFBP, 0x00000000)  returns 0x00 (0000ms, 1495ms total)
T1D38 001:757 JLINK_SetBPEx(Addr = 0x10000000, Type = 0xFFFFFFF2)  returns 0x00000004 (0000ms, 1495ms total)
T1D38 001:757 JLINK_Go() -- CPU_WriteMem(4 bytes @ 0xE0002008) -- CPU_WriteMem(4 bytes @ 0xE000200C) -- CPU_WriteMem(4 bytes @ 0xE0002010) -- CPU_WriteMem(4 bytes @ 0xE0002014) -- CPU_WriteMem(4 bytes @ 0xE0002018) -- CPU_WriteMem(4 bytes @ 0xE000201C) (0018ms, 1495ms total)
T1D38 001:775 JLINK_IsHalted()  returns TRUE (0007ms, 1513ms total)
T1D38 001:782 JLINK_ReadReg(R15)  returns 0x10000000 (0001ms, 1513ms total)
T1D38 001:783 JLINK_ClrBPEx(BPHandle = 0x00000004)  returns 0x00 (0000ms, 1514ms total)
T1D38 001:783 JLINK_ReadReg(R0)  returns 0x00000001 (0000ms, 1514ms total)
T1D38 001:783 JLINK_WriteReg(R0, 0x00001000)  returns 0x00 (0001ms, 1514ms total)
T1D38 001:784 JLINK_WriteReg(R1, 0x00001000)  returns 0x00 (0000ms, 1515ms total)
T1D38 001:784 JLINK_WriteReg(R2, 0x000000FF)  returns 0x00 (0000ms, 1515ms total)
T1D38 001:784 JLINK_WriteReg(R3, 0x00000000)  returns 0x00 (0003ms, 1515ms total)
T1D38 001:787 JLINK_WriteReg(R4, 0x00000000)  returns 0x00 (0000ms, 1518ms total)
T1D38 001:787 JLINK_WriteReg(R5, 0x00000000)  returns 0x00 (0005ms, 1518ms total)
T1D38 001:792 JLINK_WriteReg(R6, 0x00000000)  returns 0x00 (0000ms, 1523ms total)
T1D38 001:792 JLINK_WriteReg(R7, 0x00000000)  returns 0x00 (0000ms, 1523ms total)
T1D38 001:792 JLINK_WriteReg(R8, 0x00000000)  returns 0x00 (0001ms, 1523ms total)
T1D38 001:793 JLINK_WriteReg(R9, 0x10000174)  returns 0x00 (0000ms, 1524ms total)
T1D38 001:793 JLINK_WriteReg(R10, 0x00000000)  returns 0x00 (0000ms, 1524ms total)
T1D38 001:793 JLINK_WriteReg(R11, 0x00000000)  returns 0x00 (0000ms, 1524ms total)
T1D38 001:793 JLINK_WriteReg(R12, 0x00000000)  returns 0x00 (0000ms, 1524ms total)
T1D38 001:793 JLINK_WriteReg(R13, 0x10000800)  returns 0x00 (0000ms, 1524ms total)
T1D38 001:793 JLINK_WriteReg(R14, 0x10000001)  returns 0x00 (0001ms, 1524ms total)
T1D38 001:794 JLINK_WriteReg(R15, 0x100000AE)  returns 0x00 (0000ms, 1525ms total)
T1D38 001:794 JLINK_WriteReg(XPSR, 0x01000000)  returns 0x00 (0000ms, 1525ms total)
T1D38 001:794 JLINK_WriteReg(MSP, 0x10000800)  returns 0x00 (0000ms, 1525ms total)
T1D38 001:794 JLINK_WriteReg(PSP, 0x10000800)  returns 0x00 (0000ms, 1525ms total)
T1D38 001:794 JLINK_WriteReg(CFBP, 0x00000000)  returns 0x00 (0001ms, 1525ms total)
T1D38 001:795 JLINK_SetBPEx(Addr = 0x10000000, Type = 0xFFFFFFF2)  returns 0x00000005 (0000ms, 1526ms total)
T1D38 001:795 JLINK_Go() -- CPU_WriteMem(4 bytes @ 0xE0002008) -- CPU_WriteMem(4 bytes @ 0xE000200C) -- CPU_WriteMem(4 bytes @ 0xE0002010) -- CPU_WriteMem(4 bytes @ 0xE0002014) -- CPU_WriteMem(4 bytes @ 0xE0002018) -- CPU_WriteMem(4 bytes @ 0xE000201C) (0012ms, 1526ms total)
T1D38 001:807 JLINK_IsHalted()  returns FALSE (0001ms, 1538ms total)
T1D38 001:858 JLINK_IsHalted()  returns FALSE (0001ms, 1538ms total)
T1D38 001:909 JLINK_IsHalted()  returns TRUE (0007ms, 1538ms total)
T1D38 001:918 JLINK_ReadReg(R15)  returns 0x10000000 (0000ms, 1538ms total)
T1D38 001:918 JLINK_ClrBPEx(BPHandle = 0x00000005)  returns 0x00 (0000ms, 1538ms total)
T1D38 001:918 JLINK_ReadReg(R0)  returns 0x00000000 (0007ms, 1538ms total)
T1D38 001:926 JLINK_WriteReg(R0, 0x00002000)  returns 0x00 (0000ms, 1545ms total)
T1D38 001:926 JLINK_WriteReg(R1, 0x00001000)  returns 0x00 (0000ms, 1545ms total)
T1D38 001:928 JLINK_WriteReg(R2, 0x000000FF)  returns 0x00 (0000ms, 1547ms total)
T1D38 001:928 JLINK_WriteReg(R3, 0x00000000)  returns 0x00 (0000ms, 1547ms total)
T1D38 001:928 JLINK_WriteReg(R4, 0x00000000)  returns 0x00 (0000ms, 1547ms total)
T1D38 001:928 JLINK_WriteReg(R5, 0x00000000)  returns 0x00 (0000ms, 1547ms total)
T1D38 001:928 JLINK_WriteReg(R6, 0x00000000)  returns 0x00 (0000ms, 1547ms total)
T1D38 001:928 JLINK_WriteReg(R7, 0x00000000)  returns 0x00 (0000ms, 1547ms total)
T1D38 001:929 JLINK_WriteReg(R8, 0x00000000)  returns 0x00 (0000ms, 1547ms total)
T1D38 001:929 JLINK_WriteReg(R9, 0x10000174)  returns 0x00 (0000ms, 1547ms total)
T1D38 001:929 JLINK_WriteReg(R10, 0x00000000)  returns 0x00 (0000ms, 1547ms total)
T1D38 001:929 JLINK_WriteReg(R11, 0x00000000)  returns 0x00 (0000ms, 1547ms total)
T1D38 001:929 JLINK_WriteReg(R12, 0x00000000)  returns 0x00 (0000ms, 1547ms total)
T1D38 001:929 JLINK_WriteReg(R13, 0x10000800)  returns 0x00 (0000ms, 1547ms total)
T1D38 001:929 JLINK_WriteReg(R14, 0x10000001)  returns 0x00 (0000ms, 1547ms total)
T1D38 001:929 JLINK_WriteReg(R15, 0x10000020)  returns 0x00 (0001ms, 1547ms total)
T1D38 001:930 JLINK_WriteReg(XPSR, 0x01000000)  returns 0x00 (0000ms, 1548ms total)
T1D38 001:930 JLINK_WriteReg(MSP, 0x10000800)  returns 0x00 (0000ms, 1548ms total)
T1D38 001:930 JLINK_WriteReg(PSP, 0x10000800)  returns 0x00 (0000ms, 1548ms total)
T1D38 001:930 JLINK_WriteReg(CFBP, 0x00000000)  returns 0x00 (0000ms, 1548ms total)
T1D38 001:930 JLINK_SetBPEx(Addr = 0x10000000, Type = 0xFFFFFFF2)  returns 0x00000006 (0000ms, 1548ms total)
T1D38 001:930 JLINK_Go() -- CPU_WriteMem(4 bytes @ 0xE0002008) -- CPU_WriteMem(4 bytes @ 0xE000200C) -- CPU_WriteMem(4 bytes @ 0xE0002010) -- CPU_WriteMem(4 bytes @ 0xE0002014) -- CPU_WriteMem(4 bytes @ 0xE0002018) -- CPU_WriteMem(4 bytes @ 0xE000201C) (0019ms, 1548ms total)
T1D38 001:949 JLINK_IsHalted()  returns TRUE (0010ms, 1567ms total)
T1D38 001:959 JLINK_ReadReg(R15)  returns 0x10000000 (0000ms, 1567ms total)
T1D38 001:960 JLINK_ClrBPEx(BPHandle = 0x00000006)  returns 0x00 (0000ms, 1567ms total)
T1D38 001:960 JLINK_ReadReg(R0)  returns 0x00000001 (0000ms, 1567ms total)
T1D38 001:960 JLINK_WriteReg(R0, 0x00002000)  returns 0x00 (0001ms, 1567ms total)
T1D38 001:961 JLINK_WriteReg(R1, 0x00001000)  returns 0x00 (0000ms, 1568ms total)
T1D38 001:961 JLINK_WriteReg(R2, 0x000000FF)  returns 0x00 (0000ms, 1568ms total)
T1D38 001:961 JLINK_WriteReg(R3, 0x00000000)  returns 0x00 (0000ms, 1568ms total)
T1D38 001:961 JLINK_WriteReg(R4, 0x00000000)  returns 0x00 (0000ms, 1568ms total)
T1D38 001:961 JLINK_WriteReg(R5, 0x00000000)  returns 0x00 (0000ms, 1568ms total)
T1D38 001:962 JLINK_WriteReg(R6, 0x00000000)  returns 0x00 (0000ms, 1569ms total)
T1D38 001:962 JLINK_WriteReg(R7, 0x00000000)  returns 0x00 (0000ms, 1569ms total)
T1D38 001:962 JLINK_WriteReg(R8, 0x00000000)  returns 0x00 (0000ms, 1569ms total)
T1D38 001:962 JLINK_WriteReg(R9, 0x10000174)  returns 0x00 (0000ms, 1569ms total)
T1D38 001:962 JLINK_WriteReg(R10, 0x00000000)  returns 0x00 (0000ms, 1569ms total)
T1D38 001:962 JLINK_WriteReg(R11, 0x00000000)  returns 0x00 (0001ms, 1569ms total)
T1D38 001:963 JLINK_WriteReg(R12, 0x00000000)  returns 0x00 (0000ms, 1570ms total)
T1D38 001:963 JLINK_WriteReg(R13, 0x10000800)  returns 0x00 (0000ms, 1570ms total)
T1D38 001:963 JLINK_WriteReg(R14, 0x10000001)  returns 0x00 (0000ms, 1570ms total)
T1D38 001:963 JLINK_WriteReg(R15, 0x100000AE)  returns 0x00 (0000ms, 1570ms total)
T1D38 001:963 JLINK_WriteReg(XPSR, 0x01000000)  returns 0x00 (0000ms, 1570ms total)
T1D38 001:964 JLINK_WriteReg(MSP, 0x10000800)  returns 0x00 (0000ms, 1571ms total)
T1D38 001:964 JLINK_WriteReg(PSP, 0x10000800)  returns 0x00 (0000ms, 1571ms total)
T1D38 001:964 JLINK_WriteReg(CFBP, 0x00000000)  returns 0x00 (0000ms, 1571ms total)
T1D38 001:964 JLINK_SetBPEx(Addr = 0x10000000, Type = 0xFFFFFFF2)  returns 0x00000007 (0000ms, 1571ms total)
T1D38 001:964 JLINK_Go() -- CPU_WriteMem(4 bytes @ 0xE0002008) -- CPU_WriteMem(4 bytes @ 0xE000200C) -- CPU_WriteMem(4 bytes @ 0xE0002010) -- CPU_WriteMem(4 bytes @ 0xE0002014) -- CPU_WriteMem(4 bytes @ 0xE0002018) -- CPU_WriteMem(4 bytes @ 0xE000201C) (0019ms, 1571ms total)
T1D38 001:983 JLINK_IsHalted()  returns FALSE (0004ms, 1590ms total)
T1D38 002:038 JLINK_IsHalted()  returns FALSE (0007ms, 1590ms total)
T1D38 002:095 JLINK_IsHalted()  returns TRUE (0010ms, 1590ms total)
T1D38 002:105 JLINK_ReadReg(R15)  returns 0x10000000 (0000ms, 1590ms total)
T1D38 002:105 JLINK_ClrBPEx(BPHandle = 0x00000007)  returns 0x00 (0001ms, 1590ms total)
T1D38 002:106 JLINK_ReadReg(R0)  returns 0x00000000 (0000ms, 1591ms total)
T1D38 002:107 JLINK_WriteReg(R0, 0x00003000)  returns 0x00 (0000ms, 1591ms total)
T1D38 002:107 JLINK_WriteReg(R1, 0x00001000)  returns 0x00 (0001ms, 1591ms total)
T1D38 002:108 JLINK_WriteReg(R2, 0x000000FF)  returns 0x00 (0000ms, 1592ms total)
T1D38 002:108 JLINK_WriteReg(R3, 0x00000000)  returns 0x00 (0000ms, 1592ms total)
T1D38 002:108 JLINK_WriteReg(R4, 0x00000000)  returns 0x00 (0000ms, 1592ms total)
T1D38 002:108 JLINK_WriteReg(R5, 0x00000000)  returns 0x00 (0000ms, 1592ms total)
T1D38 002:108 JLINK_WriteReg(R6, 0x00000000)  returns 0x00 (0000ms, 1592ms total)
T1D38 002:108 JLINK_WriteReg(R7, 0x00000000)  returns 0x00 (0001ms, 1592ms total)
T1D38 002:109 JLINK_WriteReg(R8, 0x00000000)  returns 0x00 (0000ms, 1593ms total)
T1D38 002:109 JLINK_WriteReg(R9, 0x10000174)  returns 0x00 (0000ms, 1593ms total)
T1D38 002:109 JLINK_WriteReg(R10, 0x00000000)  returns 0x00 (0000ms, 1593ms total)
T1D38 002:109 JLINK_WriteReg(R11, 0x00000000)  returns 0x00 (0000ms, 1593ms total)
T1D38 002:109 JLINK_WriteReg(R12, 0x00000000)  returns 0x00 (0001ms, 1593ms total)
T1D38 002:110 JLINK_WriteReg(R13, 0x10000800)  returns 0x00 (0000ms, 1594ms total)
T1D38 002:110 JLINK_WriteReg(R14, 0x10000001)  returns 0x00 (0000ms, 1594ms total)
T1D38 002:110 JLINK_WriteReg(R15, 0x10000020)  returns 0x00 (0000ms, 1594ms total)
T1D38 002:110 JLINK_WriteReg(XPSR, 0x01000000)  returns 0x00 (0000ms, 1594ms total)
T1D38 002:110 JLINK_WriteReg(MSP, 0x10000800)  returns 0x00 (0000ms, 1594ms total)
T1D38 002:117 JLINK_WriteReg(PSP, 0x10000800)  returns 0x00 (0000ms, 1601ms total)
T1D38 002:117 JLINK_WriteReg(CFBP, 0x00000000)  returns 0x00 (0000ms, 1601ms total)
T1D38 002:117 JLINK_SetBPEx(Addr = 0x10000000, Type = 0xFFFFFFF2)  returns 0x00000008 (0001ms, 1601ms total)
T1D38 002:118 JLINK_Go() -- CPU_WriteMem(4 bytes @ 0xE0002008) -- CPU_WriteMem(4 bytes @ 0xE000200C) -- CPU_WriteMem(4 bytes @ 0xE0002010) -- CPU_WriteMem(4 bytes @ 0xE0002014) -- CPU_WriteMem(4 bytes @ 0xE0002018) -- CPU_WriteMem(4 bytes @ 0xE000201C) (0020ms, 1602ms total)
T1D38 002:138 JLINK_IsHalted()  returns TRUE (0008ms, 1622ms total)
T1D38 002:147 JLINK_ReadReg(R15)  returns 0x10000000 (0000ms, 1622ms total)
T1D38 002:147 JLINK_ClrBPEx(BPHandle = 0x00000008)  returns 0x00 (0000ms, 1622ms total)
T1D38 002:147 JLINK_ReadReg(R0)  returns 0x00000001 (0000ms, 1622ms total)
T1D38 002:147 JLINK_WriteReg(R0, 0x00003000)  returns 0x00 (0000ms, 1622ms total)
T1D38 002:147 JLINK_WriteReg(R1, 0x00001000)  returns 0x00 (0000ms, 1622ms total)
T1D38 002:147 JLINK_WriteReg(R2, 0x000000FF)  returns 0x00 (0001ms, 1622ms total)
T1D38 002:148 JLINK_WriteReg(R3, 0x00000000)  returns 0x00 (0000ms, 1623ms total)
T1D38 002:148 JLINK_WriteReg(R4, 0x00000000)  returns 0x00 (0000ms, 1623ms total)
T1D38 002:148 JLINK_WriteReg(R5, 0x00000000)  returns 0x00 (0000ms, 1623ms total)
T1D38 002:148 JLINK_WriteReg(R6, 0x00000000)  returns 0x00 (0000ms, 1623ms total)
T1D38 002:148 JLINK_WriteReg(R7, 0x00000000)  returns 0x00 (0002ms, 1623ms total)
T1D38 002:150 JLINK_WriteReg(R8, 0x00000000)  returns 0x00 (0000ms, 1625ms total)
T1D38 002:150 JLINK_WriteReg(R9, 0x10000174)  returns 0x00 (0001ms, 1625ms total)
T1D38 002:151 JLINK_WriteReg(R10, 0x00000000)  returns 0x00 (0000ms, 1626ms total)
T1D38 002:151 JLINK_WriteReg(R11, 0x00000000)  returns 0x00 (0000ms, 1626ms total)
T1D38 002:151 JLINK_WriteReg(R12, 0x00000000)  returns 0x00 (0000ms, 1626ms total)
T1D38 002:151 JLINK_WriteReg(R13, 0x10000800)  returns 0x00 (0000ms, 1626ms total)
T1D38 002:151 JLINK_WriteReg(R14, 0x10000001)  returns 0x00 (0000ms, 1626ms total)
T1D38 002:152 JLINK_WriteReg(R15, 0x100000AE)  returns 0x00 (0000ms, 1627ms total)
T1D38 002:152 JLINK_WriteReg(XPSR, 0x01000000)  returns 0x00 (0000ms, 1627ms total)
T1D38 002:152 JLINK_WriteReg(MSP, 0x10000800)  returns 0x00 (0000ms, 1627ms total)
T1D38 002:152 JLINK_WriteReg(PSP, 0x10000800)  returns 0x00 (0000ms, 1627ms total)
T1D38 002:152 JLINK_WriteReg(CFBP, 0x00000000)  returns 0x00 (0000ms, 1627ms total)
T1D38 002:152 JLINK_SetBPEx(Addr = 0x10000000, Type = 0xFFFFFFF2)  returns 0x00000009 (0001ms, 1627ms total)
T1D38 002:153 JLINK_Go() -- CPU_WriteMem(4 bytes @ 0xE0002008) -- CPU_WriteMem(4 bytes @ 0xE000200C) -- CPU_WriteMem(4 bytes @ 0xE0002010) -- CPU_WriteMem(4 bytes @ 0xE0002014) -- CPU_WriteMem(4 bytes @ 0xE0002018) -- CPU_WriteMem(4 bytes @ 0xE000201C) (0014ms, 1628ms total)
T1D38 002:167 JLINK_IsHalted()  returns FALSE (0008ms, 1642ms total)
T1D38 002:232 JLINK_IsHalted()  returns FALSE (0006ms, 1642ms total)
T1D38 002:290 JLINK_IsHalted()  returns TRUE (0008ms, 1642ms total)
T1D38 002:298 JLINK_ReadReg(R15)  returns 0x10000000 (0000ms, 1642ms total)
T1D38 002:298 JLINK_ClrBPEx(BPHandle = 0x00000009)  returns 0x00 (0000ms, 1642ms total)
T1D38 002:298 JLINK_ReadReg(R0)  returns 0x00000000 (0000ms, 1642ms total)
T1D38 002:304 JLINK_WriteReg(R0, 0x00004000)  returns 0x00 (0004ms, 1642ms total)
T1D38 002:308 JLINK_WriteReg(R1, 0x00001000)  returns 0x00 (0000ms, 1646ms total)
T1D38 002:308 JLINK_WriteReg(R2, 0x000000FF)  returns 0x00 (0000ms, 1646ms total)
T1D38 002:308 JLINK_WriteReg(R3, 0x00000000)  returns 0x00 (0000ms, 1646ms total)
T1D38 002:308 JLINK_WriteReg(R4, 0x00000000)  returns 0x00 (0000ms, 1646ms total)
T1D38 002:308 JLINK_WriteReg(R5, 0x00000000)  returns 0x00 (0010ms, 1646ms total)
T1D38 002:318 JLINK_WriteReg(R6, 0x00000000)  returns 0x00 (0000ms, 1656ms total)
T1D38 002:318 JLINK_WriteReg(R7, 0x00000000)  returns 0x00 (0000ms, 1656ms total)
T1D38 002:318 JLINK_WriteReg(R8, 0x00000000)  returns 0x00 (0000ms, 1656ms total)
T1D38 002:318 JLINK_WriteReg(R9, 0x10000174)  returns 0x00 (0000ms, 1656ms total)
T1D38 002:318 JLINK_WriteReg(R10, 0x00000000)  returns 0x00 (0008ms, 1656ms total)
T1D38 002:326 JLINK_WriteReg(R11, 0x00000000)  returns 0x00 (0000ms, 1664ms total)
T1D38 002:326 JLINK_WriteReg(R12, 0x00000000)  returns 0x00 (0000ms, 1664ms total)
T1D38 002:327 JLINK_WriteReg(R13, 0x10000800)  returns 0x00 (0000ms, 1665ms total)
T1D38 002:327 JLINK_WriteReg(R14, 0x10000001)  returns 0x00 (0000ms, 1665ms total)
T1D38 002:327 JLINK_WriteReg(R15, 0x10000020)  returns 0x00 (0000ms, 1665ms total)
T1D38 002:327 JLINK_WriteReg(XPSR, 0x01000000)  returns 0x00 (0000ms, 1665ms total)
T1D38 002:328 JLINK_WriteReg(MSP, 0x10000800)  returns 0x00 (0000ms, 1665ms total)
T1D38 002:328 JLINK_WriteReg(PSP, 0x10000800)  returns 0x00 (0000ms, 1665ms total)
T1D38 002:328 JLINK_WriteReg(CFBP, 0x00000000)  returns 0x00 (0000ms, 1665ms total)
T1D38 002:328 JLINK_SetBPEx(Addr = 0x10000000, Type = 0xFFFFFFF2)  returns 0x0000000A (0002ms, 1665ms total)
T1D38 002:330 JLINK_Go() -- CPU_WriteMem(4 bytes @ 0xE0002008) -- CPU_WriteMem(4 bytes @ 0xE000200C) -- CPU_WriteMem(4 bytes @ 0xE0002010) -- CPU_WriteMem(4 bytes @ 0xE0002014) -- CPU_WriteMem(4 bytes @ 0xE0002018) -- CPU_WriteMem(4 bytes @ 0xE000201C) (0018ms, 1667ms total)
T1D38 002:348 JLINK_IsHalted()  returns TRUE (0009ms, 1685ms total)
T1D38 002:357 JLINK_ReadReg(R15)  returns 0x10000000 (0000ms, 1685ms total)
T1D38 002:357 JLINK_ClrBPEx(BPHandle = 0x0000000A)  returns 0x00 (0000ms, 1685ms total)
T1D38 002:358 JLINK_ReadReg(R0)  returns 0x00000001 (0000ms, 1686ms total)
T1D38 002:358 JLINK_WriteReg(R0, 0x00004000)  returns 0x00 (0000ms, 1686ms total)
T1D38 002:358 JLINK_WriteReg(R1, 0x00001000)  returns 0x00 (0000ms, 1686ms total)
T1D38 002:358 JLINK_WriteReg(R2, 0x000000FF)  returns 0x00 (0000ms, 1686ms total)
T1D38 002:358 JLINK_WriteReg(R3, 0x00000000)  returns 0x00 (0000ms, 1686ms total)
T1D38 002:361 JLINK_WriteReg(R4, 0x00000000)  returns 0x00 (0000ms, 1689ms total)
T1D38 002:361 JLINK_WriteReg(R5, 0x00000000)  returns 0x00 (0000ms, 1689ms total)
T1D38 002:361 JLINK_WriteReg(R6, 0x00000000)  returns 0x00 (0000ms, 1689ms total)
T1D38 002:362 JLINK_WriteReg(R7, 0x00000000)  returns 0x00 (0000ms, 1690ms total)
T1D38 002:362 JLINK_WriteReg(R8, 0x00000000)  returns 0x00 (0000ms, 1690ms total)
T1D38 002:362 JLINK_WriteReg(R9, 0x10000174)  returns 0x00 (0000ms, 1690ms total)
T1D38 002:363 JLINK_WriteReg(R10, 0x00000000)  returns 0x00 (0000ms, 1691ms total)
T1D38 002:363 JLINK_WriteReg(R11, 0x00000000)  returns 0x00 (0000ms, 1691ms total)
T1D38 002:363 JLINK_WriteReg(R12, 0x00000000)  returns 0x00 (0000ms, 1691ms total)
T1D38 002:363 JLINK_WriteReg(R13, 0x10000800)  returns 0x00 (0001ms, 1691ms total)
T1D38 002:365 JLINK_WriteReg(R14, 0x10000001)  returns 0x00 (0000ms, 1692ms total)
T1D38 002:365 JLINK_WriteReg(R15, 0x100000AE)  returns 0x00 (0000ms, 1692ms total)
T1D38 002:365 JLINK_WriteReg(XPSR, 0x01000000)  returns 0x00 (0001ms, 1692ms total)
T1D38 002:366 JLINK_WriteReg(MSP, 0x10000800)  returns 0x00 (0000ms, 1693ms total)
T1D38 002:367 JLINK_WriteReg(PSP, 0x10000800)  returns 0x00 (0000ms, 1694ms total)
T1D38 002:367 JLINK_WriteReg(CFBP, 0x00000000)  returns 0x00 (0008ms, 1694ms total)
T1D38 002:375 JLINK_SetBPEx(Addr = 0x10000000, Type = 0xFFFFFFF2)  returns 0x0000000B (0000ms, 1702ms total)
T1D38 002:375 JLINK_Go() -- CPU_WriteMem(4 bytes @ 0xE0002008) -- CPU_WriteMem(4 bytes @ 0xE000200C) -- CPU_WriteMem(4 bytes @ 0xE0002010) -- CPU_WriteMem(4 bytes @ 0xE0002014) -- CPU_WriteMem(4 bytes @ 0xE0002018) -- CPU_WriteMem(4 bytes @ 0xE000201C) (0020ms, 1702ms total)
T1D38 002:395 JLINK_IsHalted()  returns FALSE (0003ms, 1722ms total)
T1D38 002:448 JLINK_IsHalted()  returns FALSE (0001ms, 1722ms total)
T1D38 002:499 JLINK_IsHalted()  returns TRUE (0012ms, 1722ms total)
T1D38 002:511 JLINK_ReadReg(R15)  returns 0x10000000 (0000ms, 1722ms total)
T1D38 002:511 JLINK_ClrBPEx(BPHandle = 0x0000000B)  returns 0x00 (0000ms, 1722ms total)
T1D38 002:511 JLINK_ReadReg(R0)  returns 0x00000000 (0000ms, 1722ms total)
T1D38 002:538 JLINK_WriteReg(R0, 0x00005000)  returns 0x00 (0000ms, 1722ms total)
T1D38 002:538 JLINK_WriteReg(R1, 0x00001000)  returns 0x00 (0000ms, 1722ms total)
T1D38 002:538 JLINK_WriteReg(R2, 0x000000FF)  returns 0x00 (0021ms, 1722ms total)
T1D38 002:559 JLINK_WriteReg(R3, 0x00000000)  returns 0x00 (0000ms, 1743ms total)
T1D38 002:559 JLINK_WriteReg(R4, 0x00000000)  returns 0x00 (0000ms, 1743ms total)
T1D38 002:559 JLINK_WriteReg(R5, 0x00000000)  returns 0x00 (0019ms, 1743ms total)
T1D38 002:578 JLINK_WriteReg(R6, 0x00000000)  returns 0x00 (0000ms, 1762ms total)
T1D38 002:578 JLINK_WriteReg(R7, 0x00000000)  returns 0x00 (0000ms, 1762ms total)
T1D38 002:598 JLINK_WriteReg(R8, 0x00000000)  returns 0x00 (0000ms, 1782ms total)
T1D38 002:598 JLINK_WriteReg(R9, 0x10000174)  returns 0x00 (0000ms, 1782ms total)
T1D38 002:598 JLINK_WriteReg(R10, 0x00000000)  returns 0x00 (0020ms, 1782ms total)
T1D38 002:618 JLINK_WriteReg(R11, 0x00000000)  returns 0x00 (0000ms, 1802ms total)
T1D38 002:618 JLINK_WriteReg(R12, 0x00000000)  returns 0x00 (0000ms, 1802ms total)
T1D38 002:638 JLINK_WriteReg(R13, 0x10000800)  returns 0x00 (0000ms, 1802ms total)
T1D38 002:638 JLINK_WriteReg(R14, 0x10000001)  returns 0x00 (0000ms, 1802ms total)
T1D38 002:638 JLINK_WriteReg(R15, 0x10000020)  returns 0x00 (0020ms, 1802ms total)
T1D38 002:658 JLINK_WriteReg(XPSR, 0x01000000)  returns 0x00 (0000ms, 1822ms total)
T1D38 002:658 JLINK_WriteReg(MSP, 0x10000800)  returns 0x00 (0000ms, 1822ms total)
T1D38 002:679 JLINK_WriteReg(PSP, 0x10000800)  returns 0x00 (0000ms, 1822ms total)
T1D38 002:679 JLINK_WriteReg(CFBP, 0x00000000)  returns 0x00 (0000ms, 1822ms total)
T1D38 002:679 JLINK_SetBPEx(Addr = 0x10000000, Type = 0xFFFFFFF2)  returns 0x0000000C (0012ms, 1822ms total)
T1D38 002:691 JLINK_Go() -- CPU_WriteMem(4 bytes @ 0xE0002008) -- CPU_WriteMem(4 bytes @ 0xE000200C) -- CPU_WriteMem(4 bytes @ 0xE0002010) -- CPU_WriteMem(4 bytes @ 0xE0002014) -- CPU_WriteMem(4 bytes @ 0xE0002018) -- CPU_WriteMem(4 bytes @ 0xE000201C) (0015ms, 1834ms total)
T1D38 002:706 JLINK_IsHalted()  returns TRUE (0023ms, 1849ms total)
T1D38 002:729 JLINK_ReadReg(R15)  returns 0x10000000 (0000ms, 1849ms total)
T1D38 002:729 JLINK_ClrBPEx(BPHandle = 0x0000000C)  returns 0x00 (0000ms, 1849ms total)
T1D38 002:734 JLINK_ReadReg(R0)  returns 0x00000001 (0000ms, 1849ms total)
T1D38 002:734 JLINK_WriteReg(R0, 0x00005000)  returns 0x00 (0000ms, 1849ms total)
T1D38 002:734 JLINK_WriteReg(R1, 0x00001000)  returns 0x00 (0005ms, 1849ms total)
T1D38 002:739 JLINK_WriteReg(R2, 0x000000FF)  returns 0x00 (0000ms, 1854ms total)
T1D38 002:739 JLINK_WriteReg(R3, 0x00000000)  returns 0x00 (0000ms, 1854ms total)
T1D38 002:745 JLINK_WriteReg(R4, 0x00000000)  returns 0x00 (0001ms, 1854ms total)
T1D38 002:746 JLINK_WriteReg(R5, 0x00000000)  returns 0x00 (0000ms, 1855ms total)
T1D38 002:746 JLINK_WriteReg(R6, 0x00000000)  returns 0x00 (0003ms, 1855ms total)
T1D38 002:749 JLINK_WriteReg(R7, 0x00000000)  returns 0x00 (0000ms, 1858ms total)
T1D38 002:749 JLINK_WriteReg(R8, 0x00000000)  returns 0x00 (0000ms, 1858ms total)
T1D38 002:753 JLINK_WriteReg(R9, 0x10000174)  returns 0x00 (0000ms, 1858ms total)
T1D38 002:753 JLINK_WriteReg(R10, 0x00000000)  returns 0x00 (0000ms, 1858ms total)
T1D38 002:753 JLINK_WriteReg(R11, 0x00000000)  returns 0x00 (0004ms, 1858ms total)
T1D38 002:757 JLINK_WriteReg(R12, 0x00000000)  returns 0x00 (0000ms, 1862ms total)
T1D38 002:757 JLINK_WriteReg(R13, 0x10000800)  returns 0x00 (0001ms, 1862ms total)
T1D38 002:758 JLINK_WriteReg(R14, 0x10000001)  returns 0x00 (0004ms, 1863ms total)
T1D38 002:762 JLINK_WriteReg(R15, 0x100000AE)  returns 0x00 (0000ms, 1867ms total)
T1D38 002:762 JLINK_WriteReg(XPSR, 0x01000000)  returns 0x00 (0000ms, 1867ms total)
T1D38 002:767 JLINK_WriteReg(MSP, 0x10000800)  returns 0x00 (0000ms, 1872ms total)
T1D38 002:767 JLINK_WriteReg(PSP, 0x10000800)  returns 0x00 (0000ms, 1872ms total)
T1D38 002:767 JLINK_WriteReg(CFBP, 0x00000000)  returns 0x00 (0002ms, 1872ms total)
T1D38 002:769 JLINK_SetBPEx(Addr = 0x10000000, Type = 0xFFFFFFF2)  returns 0x0000000D (0000ms, 1874ms total)
T1D38 002:769 JLINK_Go() -- CPU_WriteMem(4 bytes @ 0xE0002008) -- CPU_WriteMem(4 bytes @ 0xE000200C) -- CPU_WriteMem(4 bytes @ 0xE0002010) -- CPU_WriteMem(4 bytes @ 0xE0002014) -- CPU_WriteMem(4 bytes @ 0xE0002018) -- CPU_WriteMem(4 bytes @ 0xE000201C) (0019ms, 1874ms total)
T1D38 002:788 JLINK_IsHalted()  returns FALSE (0001ms, 1893ms total)
T1D38 002:839 JLINK_IsHalted()  returns FALSE (0007ms, 1893ms total)
T1D38 002:896 JLINK_IsHalted()  returns TRUE (0006ms, 1893ms total)
T1D38 002:902 JLINK_ReadReg(R15)  returns 0x10000000 (0001ms, 1893ms total)
T1D38 002:903 JLINK_ClrBPEx(BPHandle = 0x0000000D)  returns 0x00 (0000ms, 1894ms total)
T1D38 002:903 JLINK_ReadReg(R0)  returns 0x00000000 (0000ms, 1894ms total)
T1D38 002:904 JLINK_WriteReg(R0, 0x00006000)  returns 0x00 (0002ms, 1894ms total)
T1D38 002:906 JLINK_WriteReg(R1, 0x00001000)  returns 0x00 (0000ms, 1896ms total)
T1D38 002:906 JLINK_WriteReg(R2, 0x000000FF)  returns 0x00 (0000ms, 1896ms total)
T1D38 002:906 JLINK_WriteReg(R3, 0x00000000)  returns 0x00 (0003ms, 1896ms total)
T1D38 002:909 JLINK_WriteReg(R4, 0x00000000)  returns 0x00 (0000ms, 1899ms total)
T1D38 002:909 JLINK_WriteReg(R5, 0x00000000)  returns 0x00 (0000ms, 1899ms total)
T1D38 002:918 JLINK_WriteReg(R6, 0x00000000)  returns 0x00 (0000ms, 1908ms total)
T1D38 002:918 JLINK_WriteReg(R7, 0x00000000)  returns 0x00 (0000ms, 1908ms total)
T1D38 002:918 JLINK_WriteReg(R8, 0x00000000)  returns 0x00 (0005ms, 1908ms total)
T1D38 002:923 JLINK_WriteReg(R9, 0x10000174)  returns 0x00 (0000ms, 1913ms total)
T1D38 002:923 JLINK_WriteReg(R10, 0x00000000)  returns 0x00 (0000ms, 1913ms total)
T1D38 002:928 JLINK_WriteReg(R11, 0x00000000)  returns 0x00 (0000ms, 1913ms total)
T1D38 002:928 JLINK_WriteReg(R12, 0x00000000)  returns 0x00 (0000ms, 1913ms total)
T1D38 002:928 JLINK_WriteReg(R13, 0x10000800)  returns 0x00 (0001ms, 1913ms total)
T1D38 002:929 JLINK_WriteReg(R14, 0x10000001)  returns 0x00 (0000ms, 1914ms total)
T1D38 002:929 JLINK_WriteReg(R15, 0x10000020)  returns 0x00 (0000ms, 1914ms total)
T1D38 002:929 JLINK_WriteReg(XPSR, 0x01000000)  returns 0x00 (0000ms, 1914ms total)
T1D38 002:929 JLINK_WriteReg(MSP, 0x10000800)  returns 0x00 (0000ms, 1914ms total)
T1D38 002:929 JLINK_WriteReg(PSP, 0x10000800)  returns 0x00 (0002ms, 1914ms total)
T1D38 002:931 JLINK_WriteReg(CFBP, 0x00000000)  returns 0x00 (0000ms, 1916ms total)
T1D38 002:931 JLINK_SetBPEx(Addr = 0x10000000, Type = 0xFFFFFFF2)  returns 0x0000000E (0000ms, 1916ms total)
T1D38 002:931 JLINK_Go() -- CPU_WriteMem(4 bytes @ 0xE0002008) -- CPU_WriteMem(4 bytes @ 0xE000200C) -- CPU_WriteMem(4 bytes @ 0xE0002010) -- CPU_WriteMem(4 bytes @ 0xE0002014) -- CPU_WriteMem(4 bytes @ 0xE0002018) -- CPU_WriteMem(4 bytes @ 0xE000201C) (0013ms, 1916ms total)
T1D38 002:944 JLINK_IsHalted()  returns TRUE (0010ms, 1929ms total)
T1D38 002:954 JLINK_ReadReg(R15)  returns 0x10000000 (0000ms, 1929ms total)
T1D38 002:954 JLINK_ClrBPEx(BPHandle = 0x0000000E)  returns 0x00 (0000ms, 1929ms total)
T1D38 002:954 JLINK_ReadReg(R0)  returns 0x00000001 (0001ms, 1929ms total)
T1D38 002:955 JLINK_WriteReg(R0, 0x00006000)  returns 0x00 (0000ms, 1930ms total)
T1D38 002:955 JLINK_WriteReg(R1, 0x00001000)  returns 0x00 (0000ms, 1930ms total)
T1D38 002:957 JLINK_WriteReg(R2, 0x000000FF)  returns 0x00 (0000ms, 1930ms total)
T1D38 002:957 JLINK_WriteReg(R3, 0x00000000)  returns 0x00 (0000ms, 1930ms total)
T1D38 002:957 JLINK_WriteReg(R4, 0x00000000)  returns 0x00 (0002ms, 1930ms total)
T1D38 002:959 JLINK_WriteReg(R5, 0x00000000)  returns 0x00 (0000ms, 1932ms total)
T1D38 002:959 JLINK_WriteReg(R6, 0x00000000)  returns 0x00 (0000ms, 1932ms total)
T1D38 002:962 JLINK_WriteReg(R7, 0x00000000)  returns 0x00 (0000ms, 1932ms total)
T1D38 002:962 JLINK_WriteReg(R8, 0x00000000)  returns 0x00 (0000ms, 1932ms total)
T1D38 002:962 JLINK_WriteReg(R9, 0x10000174)  returns 0x00 (0003ms, 1932ms total)
T1D38 002:965 JLINK_WriteReg(R10, 0x00000000)  returns 0x00 (0000ms, 1935ms total)
T1D38 002:965 JLINK_WriteReg(R11, 0x00000000)  returns 0x00 (0000ms, 1935ms total)
T1D38 002:965 JLINK_WriteReg(R12, 0x00000000)  returns 0x00 (0002ms, 1935ms total)
T1D38 002:967 JLINK_WriteReg(R13, 0x10000800)  returns 0x00 (0000ms, 1937ms total)
T1D38 002:967 JLINK_WriteReg(R14, 0x10000001)  returns 0x00 (0000ms, 1937ms total)
T1D38 002:969 JLINK_WriteReg(R15, 0x100000AE)  returns 0x00 (0000ms, 1939ms total)
T1D38 002:969 JLINK_WriteReg(XPSR, 0x01000000)  returns 0x00 (0000ms, 1939ms total)
T1D38 002:969 JLINK_WriteReg(MSP, 0x10000800)  returns 0x00 (0002ms, 1939ms total)
T1D38 002:971 JLINK_WriteReg(PSP, 0x10000800)  returns 0x00 (0000ms, 1941ms total)
T1D38 002:971 JLINK_WriteReg(CFBP, 0x00000000)  returns 0x00 (0000ms, 1941ms total)
T1D38 002:977 JLINK_SetBPEx(Addr = 0x10000000, Type = 0xFFFFFFF2)  returns 0x0000000F (0000ms, 1941ms total)
T1D38 002:977 JLINK_Go() -- CPU_WriteMem(4 bytes @ 0xE0002008) -- CPU_WriteMem(4 bytes @ 0xE000200C) -- CPU_WriteMem(4 bytes @ 0xE0002010) -- CPU_WriteMem(4 bytes @ 0xE0002014) -- CPU_WriteMem(4 bytes @ 0xE0002018) -- CPU_WriteMem(4 bytes @ 0xE000201C) (0012ms, 1941ms total)
T1D38 002:990 JLINK_IsHalted()  returns FALSE (0001ms, 1954ms total)
T1D38 003:041 JLINK_IsHalted()  returns FALSE (0002ms, 1954ms total)
T1D38 003:093 JLINK_IsHalted()  returns TRUE (0007ms, 1954ms total)
T1D38 003:101 JLINK_ReadReg(R15)  returns 0x10000000 (0000ms, 1954ms total)
T1D38 003:101 JLINK_ClrBPEx(BPHandle = 0x0000000F)  returns 0x00 (0000ms, 1954ms total)
T1D38 003:101 JLINK_ReadReg(R0)  returns 0x00000000 (0003ms, 1954ms total)
T1D38 003:105 JLINK_WriteReg(R0, 0x00007000)  returns 0x00 (0000ms, 1957ms total)
T1D38 003:105 JLINK_WriteReg(R1, 0x00001000)  returns 0x00 (0000ms, 1957ms total)
T1D38 003:107 JLINK_WriteReg(R2, 0x000000FF)  returns 0x00 (0000ms, 1957ms total)
T1D38 003:107 JLINK_WriteReg(R3, 0x00000000)  returns 0x00 (0000ms, 1957ms total)
T1D38 003:107 JLINK_WriteReg(R4, 0x00000000)  returns 0x00 (0004ms, 1957ms total)
T1D38 003:111 JLINK_WriteReg(R5, 0x00000000)  returns 0x00 (0000ms, 1961ms total)
T1D38 003:111 JLINK_WriteReg(R6, 0x00000000)  returns 0x00 (0000ms, 1961ms total)
T1D38 003:111 JLINK_WriteReg(R7, 0x00000000)  returns 0x00 (0003ms, 1961ms total)
T1D38 003:114 JLINK_WriteReg(R8, 0x00000000)  returns 0x00 (0000ms, 1964ms total)
T1D38 003:114 JLINK_WriteReg(R9, 0x10000174)  returns 0x00 (0000ms, 1964ms total)
T1D38 003:116 JLINK_WriteReg(R10, 0x00000000)  returns 0x00 (0000ms, 1966ms total)
T1D38 003:116 JLINK_WriteReg(R11, 0x00000000)  returns 0x00 (0000ms, 1966ms total)
T1D38 003:116 JLINK_WriteReg(R12, 0x00000000)  returns 0x00 (0005ms, 1966ms total)
T1D38 003:121 JLINK_WriteReg(R13, 0x10000800)  returns 0x00 (0000ms, 1971ms total)
T1D38 003:121 JLINK_WriteReg(R14, 0x10000001)  returns 0x00 (0000ms, 1971ms total)
T1D38 003:123 JLINK_WriteReg(R15, 0x10000020)  returns 0x00 (0000ms, 1971ms total)
T1D38 003:123 JLINK_WriteReg(XPSR, 0x01000000)  returns 0x00 (0000ms, 1971ms total)
T1D38 003:123 JLINK_WriteReg(MSP, 0x10000800)  returns 0x00 (0003ms, 1971ms total)
T1D38 003:126 JLINK_WriteReg(PSP, 0x10000800)  returns 0x00 (0000ms, 1974ms total)
T1D38 003:126 JLINK_WriteReg(CFBP, 0x00000000)  returns 0x00 (0000ms, 1974ms total)
T1D38 003:128 JLINK_SetBPEx(Addr = 0x10000000, Type = 0xFFFFFFF2)  returns 0x00000010 (0000ms, 1974ms total)
T1D38 003:128 JLINK_Go() -- CPU_WriteMem(4 bytes @ 0xE0002008) -- CPU_WriteMem(4 bytes @ 0xE000200C) -- CPU_WriteMem(4 bytes @ 0xE0002010) -- CPU_WriteMem(4 bytes @ 0xE0002014) -- CPU_WriteMem(4 bytes @ 0xE0002018) -- CPU_WriteMem(4 bytes @ 0xE000201C) (0013ms, 1974ms total)
T1D38 003:141 JLINK_IsHalted()  returns TRUE (0007ms, 1987ms total)
T1D38 003:148 JLINK_ReadReg(R15)  returns 0x10000000 (0000ms, 1987ms total)
T1D38 003:148 JLINK_ClrBPEx(BPHandle = 0x00000010)  returns 0x00 (0000ms, 1987ms total)
T1D38 003:148 JLINK_ReadReg(R0)  returns 0x00000001 (0000ms, 1987ms total)
T1D38 003:148 JLINK_WriteReg(R0, 0x00007000)  returns 0x00 (0000ms, 1987ms total)
T1D38 003:148 JLINK_WriteReg(R1, 0x00001000)  returns 0x00 (0000ms, 1987ms total)
T1D38 003:148 JLINK_WriteReg(R2, 0x000000FF)  returns 0x00 (0003ms, 1987ms total)
T1D38 003:151 JLINK_WriteReg(R3, 0x00000000)  returns 0x00 (0000ms, 1990ms total)
T1D38 003:151 JLINK_WriteReg(R4, 0x00000000)  returns 0x00 (0000ms, 1990ms total)
T1D38 003:151 JLINK_WriteReg(R5, 0x00000000)  returns 0x00 (0002ms, 1990ms total)
T1D38 003:153 JLINK_WriteReg(R6, 0x00000000)  returns 0x00 (0000ms, 1992ms total)
T1D38 003:153 JLINK_WriteReg(R7, 0x00000000)  returns 0x00 (0000ms, 1992ms total)
T1D38 003:156 JLINK_WriteReg(R8, 0x00000000)  returns 0x00 (0000ms, 1995ms total)
T1D38 003:156 JLINK_WriteReg(R9, 0x10000174)  returns 0x00 (0000ms, 1995ms total)
T1D38 003:156 JLINK_WriteReg(R10, 0x00000000)  returns 0x00 (0003ms, 1995ms total)
T1D38 003:159 JLINK_WriteReg(R11, 0x00000000)  returns 0x00 (0000ms, 1998ms total)
T1D38 003:159 JLINK_WriteReg(R12, 0x00000000)  returns 0x00 (0000ms, 1998ms total)
T1D38 003:161 JLINK_WriteReg(R13, 0x10000800)  returns 0x00 (0000ms, 1998ms total)
T1D38 003:161 JLINK_WriteReg(R14, 0x10000001)  returns 0x00 (0000ms, 1998ms total)
T1D38 003:161 JLINK_WriteReg(R15, 0x100000AE)  returns 0x00 (0002ms, 1998ms total)
T1D38 003:163 JLINK_WriteReg(XPSR, 0x01000000)  returns 0x00 (0000ms, 2000ms total)
T1D38 003:163 JLINK_WriteReg(MSP, 0x10000800)  returns 0x00 (0000ms, 2000ms total)
T1D38 003:166 JLINK_WriteReg(PSP, 0x10000800)  returns 0x00 (0000ms, 2000ms total)
T1D38 003:166 JLINK_WriteReg(CFBP, 0x00000000)  returns 0x00 (0000ms, 2000ms total)
T1D38 003:166 JLINK_SetBPEx(Addr = 0x10000000, Type = 0xFFFFFFF2)  returns 0x00000011 (0002ms, 2000ms total)
T1D38 003:168 JLINK_Go() -- CPU_WriteMem(4 bytes @ 0xE0002008) -- CPU_WriteMem(4 bytes @ 0xE000200C) -- CPU_WriteMem(4 bytes @ 0xE0002010) -- CPU_WriteMem(4 bytes @ 0xE0002014) -- CPU_WriteMem(4 bytes @ 0xE0002018) -- CPU_WriteMem(4 bytes @ 0xE000201C) (0016ms, 2002ms total)
T1D38 003:184 JLINK_IsHalted()  returns FALSE (0001ms, 2018ms total)
T1D38 003:236 JLINK_IsHalted()  returns FALSE (0002ms, 2018ms total)
T1D38 003:288 JLINK_IsHalted()  returns TRUE (0009ms, 2018ms total)
T1D38 003:297 JLINK_ReadReg(R15)  returns 0x10000000 (0001ms, 2018ms total)
T1D38 003:298 JLINK_ClrBPEx(BPHandle = 0x00000011)  returns 0x00 (0000ms, 2019ms total)
T1D38 003:298 JLINK_ReadReg(R0)  returns 0x00000000 (0012ms, 2019ms total)
T1D38 003:310 JLINK_WriteReg(R0, 0x00008000)  returns 0x00 (0000ms, 2031ms total)
T1D38 003:310 JLINK_WriteReg(R1, 0x00001000)  returns 0x00 (0020ms, 2031ms total)
T1D38 003:330 JLINK_WriteReg(R2, 0x000000FF)  returns 0x00 (0000ms, 2051ms total)
T1D38 003:330 JLINK_WriteReg(R3, 0x00000000)  returns 0x00 (0000ms, 2051ms total)
T1D38 003:330 JLINK_WriteReg(R4, 0x00000000)  returns 0x00 (0004ms, 2051ms total)
T1D38 003:334 JLINK_WriteReg(R5, 0x00000000)  returns 0x00 (0000ms, 2055ms total)
T1D38 003:334 JLINK_WriteReg(R6, 0x00000000)  returns 0x00 (0000ms, 2055ms total)
T1D38 003:334 JLINK_WriteReg(R7, 0x00000000)  returns 0x00 (0000ms, 2055ms total)
T1D38 003:334 JLINK_WriteReg(R8, 0x00000000)  returns 0x00 (0000ms, 2055ms total)
T1D38 003:334 JLINK_WriteReg(R9, 0x10000174)  returns 0x00 (0000ms, 2055ms total)
T1D38 003:334 JLINK_WriteReg(R10, 0x00000000)  returns 0x00 (0001ms, 2055ms total)
T1D38 003:335 JLINK_WriteReg(R11, 0x00000000)  returns 0x00 (0000ms, 2056ms total)
T1D38 003:335 JLINK_WriteReg(R12, 0x00000000)  returns 0x00 (0000ms, 2056ms total)
T1D38 003:335 JLINK_WriteReg(R13, 0x10000800)  returns 0x00 (0000ms, 2056ms total)
T1D38 003:335 JLINK_WriteReg(R14, 0x10000001)  returns 0x00 (0000ms, 2056ms total)
T1D38 003:335 JLINK_WriteReg(R15, 0x10000020)  returns 0x00 (0000ms, 2056ms total)
T1D38 003:335 JLINK_WriteReg(XPSR, 0x01000000)  returns 0x00 (0000ms, 2056ms total)
T1D38 003:335 JLINK_WriteReg(MSP, 0x10000800)  returns 0x00 (0000ms, 2056ms total)
T1D38 003:335 JLINK_WriteReg(PSP, 0x10000800)  returns 0x00 (0000ms, 2056ms total)
T1D38 003:335 JLINK_WriteReg(CFBP, 0x00000000)  returns 0x00 (0000ms, 2056ms total)
T1D38 003:335 JLINK_SetBPEx(Addr = 0x10000000, Type = 0xFFFFFFF2)  returns 0x00000012 (0000ms, 2056ms total)
